RTU

Чтение адрес 1, количество 3, функция 1
Tx:01 01 00 01 00 03 2D CB
Rx:01 01 01 07 10 4A
Rx:01 81 01 81 90					Ошибка

Чтение адрес 1, количество 3, функция 2
Tx:01 02 00 01 00 03 69 CB
Rx:01 02 01 05 61 8B
Rx:01 82 01 81 60					Ошибка

Чтение адрес 1, количество 3, функция 3
Tx:01 03 00 01 00 03 54 0B
Rx:01 03 06 00 03 00 00 00 00 65 75
Rx:01 83 01 80 F0					Ошибка

Чтение адрес 1, количество 3, функция 4
Tx:01 04 00 01 00 03 E1 CB
Rx:01 04 06 00 15 00 6F FF 85 DD 1E
Rx:01 84 01 82 C0   				Ошибка

Запись адрес 1, количество 1, значение 1 функция 5
Tx:000056-01 05 00 01 FF 00 DD FA
Rx:000057-01 05 00 01 FF 00 DD FA
Rx:000059-01 85 01 83 50			Ошибка

Запись адрес 1, количество 1, значение 23 функция 6
Tx:000076-01 06 00 01 00 17 98 04
Rx:000077-01 06 00 01 00 17 98 04
Rx:000079-01 86 01 83 A0			Ошибка

Запись адрес 1, количество 3, значение 1 0 1 функция 15
Tx:000080-01 0F 00 01 00 03 01 05 72 94
Rx:000081-01 0F 00 01 00 03 44 0A
Rx:000083-01 8F 01 85 F0			Ошибка

Запись адрес 1, количество 3, значение 33 1 15 функция 16
Tx:000085-01 10 00 01 00 03 06 00 21 00 01 00 0F 1A 86
Rx:000086-01 10 00 01 00 03 D1 C8
Rx:000092-01 90 01 8D C0			Ошибка


TCP

Чтение адрес 1, количество 3, функция 1
Tx:000101-00 13 00 00 00 06 01 01 00 01 00 03
Rx:000102-00 13 00 00 00 04 01 01 01 05
Rx:000104-00 1A 00 00 00 03 01 81 01 	Ошибка

Чтение адрес 1, количество 3, функция 2
Tx:000105-00 27 00 00 00 06 01 02 00 01 00 03
Rx:000106-00 27 00 00 00 04 01 02 01 05
Rx:000114-00 2D 00 00 00 03 01 82 01	Ошибка

Чтение адрес 1, количество 3, функция 3
Tx:000137-00 4B 00 00 00 06 01 03 00 01 00 03
Rx:000138-00 4B 00 00 00 09 01 03 06 00 1F 00 02 00 21
Rx:000140-00 55 00 00 00 03 01 83 01	Ошибка

Чтение адрес 1, количество 3, функция 4
Tx:000141-00 68 00 00 00 06 01 04 00 01 00 03
Rx:000142-00 68 00 00 00 09 01 04 06 00 01 00 02 00 03
Rx:000144-00 6D 00 00 00 03 01 84 01	Ошибка

Запись адрес 1, количество 1, значение 1 функция 5
Tx:000145-00 7A 00 00 00 06 01 05 00 01 FF 00
Rx:000146-00 7A 00 00 00 06 01 05 00 01 FF 00
Rx:000148-00 85 00 00 00 03 01 85 01	Ошибка

Запись адрес 1, количество 1, значение 56 функция 6
Tx:000149-16 71 00 00 00 06 01 06 00 01 00 38
Rx:000150-16 71 00 00 00 06 01 06 00 01 00 38
Rx:000152-16 86 00 00 00 03 01 86 01	Ошибка

Запись адрес 1, количество 3, значение 1 0 1 функция 15
Tx:000153-16 98 00 00 00 08 01 0F 00 01 00 03 01 05
Rx:000154-16 98 00 00 00 06 01 0F 00 01 00 03
Rx:000156-16 A5 00 00 00 03 01 8F 01	Ошибка

Запись адрес 1, количество 3, значение 22 312 66 функция 16
Tx:000157-16 B5 00 00 00 0D 01 10 00 01 00 03 06 00 16 01 38 00 42
Rx:000158-16 B5 00 00 00 06 01 10 00 01 00 03
Rx:000160-16 BD 00 00 00 03 01 90 01	Ошибка
